EC-Lab ASCII FILE
Nb header lines : 85                          

Potentio Electrochemical Impedance Spectroscopy

Run on channel : 2 (SN 3589)
User : 
CE vs. WE compliance from -10 V to 10 V
Electrode connection : standard
Ewe ctrl range : min = -10.00 V, max = 10.00 V
Safety Limits :
	Do not start on E overload
Acquisition started on : 01/24/2020 11:08:22
Saved on :
	File : 200120_PEIS-gc-2A-au_carbon-as-ce_ag-as-re_2_01_PEIS_C02.mpr
	Directory : Z:\USERS\Nico\2020-01-24_rde_gc_au_2A_s1\
	Host : 171.64.127.183
Device : VMP3 (SN 0128)
Address : 172.24.126.20
EC-Lab for windows v11.31 (software)
Internet server v11.30 (firmware)
Command interpretor v11.31 (firmware)
Electrode material : 
Initial state : 
Electrolyte : 
Comments : 
Electrode surface area : 0.001 cm
Characteristic mass : 0.001 g
Equivalent Weight : 0.000 g/eq.
Density : 0.000 g/cm3
Cycle Definition : Charge/Discharge alternance
Mode                Single sine         
E (V)               0.0000              
vs.                 Eoc                 
tE (h:m:s)          0:00:0.0000         
record              0                   
dI                  0.000               
unit dI             mA                  
dt (s)              0.000               
fi                  200.000             
unit fi             kHz                 
ff                  100.000             
unit ff             mHz                 
Nd                  6                   
Points              per decade          
spacing             Logarithmic         
Va (mV)             20.0                
pw                  0.10                
Na                  4                   
corr                0                   
lim_nb              0                   
limit_type1         Time                
limit_comp1         >                   
limit_value1        0.000               
limit_unit1         s                   
limit_type2         Time                
limit_comp2         >                   
limit_value2        0.000               
limit_unit2         s                   
limit_type3         Time                
limit_comp3         >                   
limit_value3        0.000               
limit_unit3         s                   
limit_type4         Time                
limit_comp4         >                   
limit_value4        0.000               
limit_unit4         s                   
limit_type5         Time                
limit_comp5         >                   
limit_value5        0.000               
limit_unit5         s                   
limit_type6         Time                
limit_comp6         >                   
limit_value6        0.000               
limit_unit6         s                   
E range min (V)     -10.000             
E range max (V)     10.000              
I Range             Auto                
Bandwidth           5                   
nc cycles           0                   
goto Ns'            0                   
nr cycles           0                   
inc. cycle          0                   

freq/Hz	Re(Z)/Ohm	-Im(Z)/Ohm	|Z|/Ohm	Phase(Z)/deg	time/s	<Ewe>/V	<I>/mA	Cs/µF	Cp/µF	cycle number	I Range	|Ewe|/V	|I|/A	(Q-Qo)/mA.h	Re(Y)/Ohm-1	Im(Y)/Ohm-1	|Y|/Ohm-1	Phase(Y)/deg	<I>/mA	dq/mA.h	
1.9999814E+005	9.6892967E+001	1.1054969E+000	9.6899277E+001	-6.5368581E-001	2.110472526896046E+000	-1.4761887E-001	3.0857109E-004	7.1984112E-001	9.3693750E-005	1.000000000000000E+000	11	1.9771431E-002	2.0404105E-004	3.163400919842792E-007	1.0319323E-002	1.1773795E-004	1.0319995E-002	6.5368581E-001	0.000000000000000E+000	3.163400919842792E-007
1.3512284E+005	9.5296112E+001	9.0243030E-001	9.5300385E+001	-5.4256046E-001	2.795485706097679E+000	-1.4758089E-001	7.7810138E-005	1.3052019E+000	1.1703499E-004	1.000000000000000E+000	11	2.1374233E-002	2.2428276E-004	4.910839155086756E-007	1.0492667E-002	9.9362922E-005	1.0493137E-002	5.4256046E-001	9.183440316009727E-004	1.747438235243964E-007
9.1291195E+004	9.4658447E+001	8.7501609E-001	9.4662491E+001	-5.2962309E-001	3.480493871931685E+000	-1.4755020E-001	1.6716681E-004	1.9923940E+000	1.7023600E-004	1.000000000000000E+000	11	2.1186633E-002	2.2381234E-004	-4.087549706067269E-008	1.0563395E-002	9.7647287E-005	1.0563847E-002	5.2962309E-001	-2.795665775630648E-003	-5.319594125693483E-007
6.1674211E+004	9.4412109E+001	9.9375397E-001	9.4417336E+001	-6.0305619E-001	4.165474811132299E+000	-1.4753133E-001	8.0048609E-005	2.5967951E+000	2.8766826E-004	1.000000000000000E+000	11	2.1022022E-002	2.2265002E-004	1.235089414486639E-007	1.0590688E-002	1.1147446E-004	1.0591275E-002	6.0305619E-001	8.639422570272325E-004	1.643844385093366E-007
4.1669758E+004	9.4338554E+001	1.1983588E+000	9.4346169E+001	-7.2777456E-001	4.850475590355927E+000	-1.4752455E-001	1.6772636E-004	3.1872220E+000	5.1420642E-004	1.000000000000000E+000	11	2.0845843E-002	2.2095061E-004	3.269028662551945E-007	1.0598410E-002	1.3462891E-004	1.0599265E-002	7.2777456E-001	1.068930359660900E-003	2.033939248065306E-007
2.8150979E+004	9.4388191E+001	1.4878014E+000	9.4399918E+001	-9.0305454E-001	5.535481756232912E+000	-1.4752556E-001	6.0833889E-005	3.7999830E+000	9.4390521E-004	1.000000000000000E+000	11	2.0690881E-002	2.1918325E-004	7.441482288057968E-007	1.0591914E-002	1.6695590E-004	1.0593230E-002	9.0305454E-001	2.192802605300807E-003	4.172453625506023E-007
1.9020934E+004	9.4569504E+001	1.9545223E+000	9.4589699E+001	-1.1839962E+000	6.220489335450111E+000	-1.4751470E-001	2.4456815E-005	4.2810245E+000	1.8278529E-003	1.000000000000000E+000	11	2.0573592E-002	2.1750352E-004	4.352702253195780E-007	1.0569719E-002	2.1845046E-004	1.0571976E-002	1.1839962E+000	-1.623282495386539E-003	-3.088780034862187E-007
1.2850729E+004	9.4798157E+001	2.5701661E+000	9.4832993E+001	-1.5530218E+000	6.905493207945256E+000	-1.4751494E-001	3.1359028E-005	4.8187146E+000	3.5394409E-003	1.000000000000000E+000	11	2.0231973E-002	2.1334320E-004	3.707932304548902E-007	1.0540980E-002	2.8578687E-004	1.0544853E-002	1.5530218E+000	-3.388552836458915E-004	-6.447699486468787E-008
8.6852656E+003	9.5225746E+001	3.3832011E+000	9.5285828E+001	-2.0347612E+000	7.491709689194977E+000	-1.4746681E-001	4.2423097E-004	5.4163809E+000	6.8282313E-003	1.000000000000000E+000	11	2.1335501E-002	2.2391054E-004	6.351995986769908E-007	1.0488123E-002	3.7262432E-004	1.0494740E-002	2.0347612E+000	1.623739618460300E-003	2.644063682221006E-007
5.8794512E+003	9.5747452E+001	4.4520679E+000	9.5850899E+001	-2.6622233E+000	8.292077433841769E+000	-1.4743648E-001	4.2628314E-004	6.0802522E+000	1.3117551E-002	1.000000000000000E+000	11	2.1879619E-002	2.2826724E-004	7.999570014221213E-007	1.0421610E-002	4.8458434E-004	1.0432870E-002	2.6622233E+000	7.410676577730165E-004	1.647574027451305E-007
3.9611973E+003	9.6456970E+001	5.9604607E+000	9.6640953E+001	-3.5360384E+000	9.411941967060557E+000	-1.4743353E-001	3.6938518E-004	6.7408371E+000	2.5641954E-002	1.000000000000000E+000	11	2.0230556E-002	2.0933730E-004	1.192610294862890E-006	1.0327880E-002	6.3820084E-004	1.0347580E-002	3.5360384E+000	1.262252544353595E-003	3.926532934407685E-007
2.6774299E+003	9.7435562E+001	7.8750863E+000	9.7753288E+001	-4.6208034E+000	1.030993112971191E+001	-1.4743760E-001	3.5240900E-004	7.5482569E+000	4.8988547E-002	1.000000000000000E+000	11	2.0328585E-002	2.0795807E-004	1.116368749824334E-006	1.0196585E-002	8.2412409E-004	1.0229835E-002	4.6208034E+000	-3.056490808067410E-004	-7.624154503855614E-008
1.8082643E+003	9.8857040E+001	1.0396892E+001	9.9402260E+001	-6.0037823E+000	1.120795621233992E+001	-1.4743508E-001	3.0614494E-004	8.4655409E+000	9.2612423E-002	1.000000000000000E+000	11	2.0377353E-002	2.0499888E-004	1.059247598137720E-006	1.0004953E-002	1.0522307E-003	1.0060133E-002	6.0037823E+000	-2.289870851602833E-004	-5.712115168661403E-008
1.2219551E+003	1.0074673E+002	1.3619699E+001	1.0166317E+002	-7.6989985E+000	1.210444841490244E+001	-1.4743544E-001	2.9084791E-004	9.5630713E+000	1.7163472E-001	1.000000000000000E+000	11	2.0391807E-002	2.0058204E-004	9.820455329871846E-007	9.7477334E-003	1.3177719E-003	9.8364037E-003	7.6989985E+000	-3.100165665105669E-004	-7.720206515053496E-008
8.2526404E+002	1.0324095E+002	1.7824236E+001	1.0476830E+002	-9.7953796E+000	1.300166651089967E+001	-1.4743431E-001	3.3095616E-004	1.0819726E+001	3.1316867E-001	1.000000000000000E+000	11	2.0390633E-002	1.9462597E-004	1.230957026540030E-006	9.4057228E-003	1.6238694E-003	9.5448717E-003	9.7953796E+000	9.987330625496078E-004	2.489114935528454E-007
5.5803571E+002	1.0664203E+002	2.3171207E+001	1.0913033E+002	-1.2258698E+001	1.390146756693139E+001	-1.4743729E-001	2.4682228E-004	1.2308624E+001	5.5490154E-001	1.000000000000000E+000	11	2.0381952E-002	1.8676708E-004	1.427081993861874E-006	8.9544207E-003	1.9456189E-003	9.1633555E-003	1.2258698E+001	7.846733204253420E-004	1.961249673218441E-007
3.7705118E+002	1.1131561E+002	2.9845097E+001	1.1524711E+002	-1.5008724E+001	1.479467547606328E+001	-1.4743754E-001	2.4868746E-004	1.4143172E+001	9.4848990E-001	1.000000000000000E+000	11	2.0375116E-002	1.7679503E-004	1.661144930180146E-006	8.3810035E-003	2.2470511E-003	8.6770076E-003	1.5008724E+001	9.433711481179458E-004	2.340629363182720E-007
2.5475545E+002	1.1759918E+002	3.8020004E+001	1.2359243E+002	-1.7916103E+001	1.569293247870519E+001	-1.4743616E-001	2.8786209E-004	1.6431776E+001	1.5549810E+000	1.000000000000000E+000	11	2.0364130E-002	1.6476843E-004	1.787996898212037E-006	7.6987566E-003	2.4890203E-003	8.0911107E-003	1.7916103E+001	5.083924573609533E-004	1.268519680318906E-007
1.7203688E+002	1.2565060E+002	4.7698513E+001	1.3439949E+002	-2.0787376E+001	1.658140614753938E+001	-1.4742605E-001	1.6641777E-004	1.9395178E+001	2.4429140E+000	1.000000000000000E+000	11	2.0369252E-002	1.5155751E-004	1.679495685522044E-006	6.9561568E-003	2.6406425E-003	7.4405046E-003	2.0787376E+001	-4.396352749502462E-004	-1.085012126899931E-007
1.1622738E+002	1.3553400E+002	5.9295376E+001	1.4793716E+002	-2.3629112E+001	1.747065704316992E+001	-1.4743513E-001	2.4271582E-004	2.3093559E+001	3.7100346E+000	1.000000000000000E+000	11	2.0357108E-002	1.3760645E-004	1.823792387653763E-006	6.1928942E-003	2.7093571E-003	6.7596268E-003	2.3629112E+001	5.841637385204454E-004	1.442967021317195E-007
7.8517616E+001	1.4702208E+002	7.3807243E+001	1.6450836E+002	-2.6657324E+001	1.838451799316681E+001	-1.4743242E-001	1.8544524E-004	2.7463383E+001	5.5281019E+000	1.000000000000000E+000	11	2.0362396E-002	1.2377727E-004	1.776570453486379E-006	5.4325857E-003	2.7272380E-003	6.0787182E-003	2.6657324E+001	-1.860227893566964E-004	-4.722193416738377E-008
5.3047844E+001	1.6045314E+002	9.2265190E+001	1.8508937E+002	-2.9900146E+001	1.931110313054523E+001	-1.4743640E-001	1.9551863E-004	3.2517300E+001	8.0802965E+000	1.000000000000000E+000	11	2.0356366E-002	1.0998128E-004	1.880758437989748E-006	4.6836589E-003	2.6932394E-003	5.4027955E-003	2.9900146E+001	4.047946908293052E-004	1.041879845033691E-007
3.5837154E+001	1.7621701E+002	1.1662112E+002	2.1131238E+002	-3.3496750E+001	2.043508363727597E+001	-1.4745112E-001	-1.4140551E-003	3.8081093E+001	1.1598825E+001	1.000000000000000E+000	12	2.0370884E-002	9.6401753E-005	1.405710749993482E-006	3.9463714E-003	2.6117242E-003	4.7323303E-003	3.3496750E+001	-1.521531438085926E-003	-4.750476879962662E-007
2.4232319E+001	1.9600258E+002	1.4889351E+002	2.4614282E+002	-3.7222149E+001	2.135810981443501E+001	-1.4745140E-001	-1.5730850E-003	4.4111252E+001	1.6140856E+001	1.000000000000000E+000	12	2.0363836E-002	8.2731785E-005	1.051538812132397E-006	3.2350980E-003	2.4575447E-003	4.0626819E-003	3.7222149E+001	-1.381346496828780E-003	-3.541719378610853E-007
1.6366972E+001	2.2150378E+002	1.9206268E+002	2.9317572E+002	-4.0928078E+001	2.218905262724729E+001	-1.4744467E-001	-1.4954731E-003	5.0630100E+001	2.1728952E+001	1.000000000000000E+000	12	2.0357573E-002	6.9438131E-005	5.890063871912490E-007	2.5770639E-003	2.2345341E-003	3.4109238E-003	4.0928078E+001	-2.003888479584574E-003	-4.625324249411479E-007
1.1050212E+001	2.5463791E+002	2.4914246E+002	3.5624771E+002	-4.4375019E+001	2.301173941302113E+001	-1.4744540E-001	-1.4409903E-003	5.7809845E+001	2.8274382E+001	1.000000000000000E+000	12	2.0355830E-002	5.7139539E-005	1.759101640012280E-007	2.0064064E-003	1.9631053E-003	2.8070356E-003	4.4375019E+001	-1.807670220550861E-003	-4.130962231900210E-007
7.4689322E+000	2.9846866E+002	3.2339246E+002	4.4007523E+002	-4.7295151E+001	2.365058928323560E+001	-1.4745800E-001	-1.5764434E-003	6.5891853E+001	3.5582600E+001	1.000000000000000E+000	12	2.0345246E-002	4.6231293E-005	8.932625377605695E-008	1.5411499E-003	1.6698445E-003	2.2723388E-003	4.7295151E+001	-4.879113095944947E-004	-8.658391022517106E-008
5.0468345E+000	3.5631128E+002	4.1671411E+002	5.4827765E+002	-4.9467911E+001	2.454388492577709E+001	-1.4743909E-001	-1.5679196E-003	7.5676819E+001	4.3715778E+001	1.000000000000000E+000	12	2.0350277E-002	3.7116737E-005	-1.616137008792672E-007	1.1853005E-003	1.3862358E-003	1.8238934E-003	4.9467911E+001	-1.011293231196087E-003	-2.509399546553242E-007
3.4085953E+000	4.2768759E+002	5.3671399E+002	6.8627881E+002	-5.1449951E+001	2.582019455972477E+001	-1.4743026E-001	-1.4670854E-003	8.6996498E+001	5.3209164E+001	1.000000000000000E+000	12	2.0349141E-002	2.9651419E-005	-5.196846010755204E-007	9.0808282E-004	1.1395719E-003	1.4571337E-003	5.1449951E+001	-1.009986296757326E-003	-3.580709001962532E-007
2.3032136E+000	5.1512115E+002	6.9460724E+002	8.6477112E+002	-5.3439346E+001	2.815011027039145E+001	-1.4742301E-001	-1.6567976E-003	9.9482483E+001	6.4183426E+001	1.000000000000000E+000	13	2.0355763E-002	2.3538902E-005	-2.075614477867226E-006	6.8882207E-004	9.2883164E-004	1.1563754E-003	5.3439346E+001	-2.404098796710276E-003	-1.555929876791705E-006
1.5562749E+000	6.2233282E+002	9.0595251E+002	1.0991124E+003	-5.5513367E+001	3.084963557197261E+001	-1.4739625E-001	-1.6704865E-003	1.1288296E+002	7.6692879E+001	1.000000000000000E+000	13	2.0352667E-002	1.8517367E-005	-2.941211439022077E-006	5.1515561E-004	7.4993086E-004	9.0982503E-004	5.5513367E+001	-1.154332229570985E-003	-8.655969611548517E-007
1.0523305E+000	7.5104974E+002	1.1857544E+003	1.4035986E+003	-5.7650074E+001	3.480952213334967E+001	-1.4740422E-001	-1.7074081E-003	1.2754788E+002	9.1028389E+001	1.000000000000000E+000	13	2.0354545E-002	1.4501685E-005	-4.226877960172108E-006	3.8122627E-004	6.0187851E-004	7.1245438E-004	5.7650074E+001	-1.168821228689585E-003	-1.285666521150031E-006
7.1035653E-001	9.2297015E+002	1.5891449E+003	1.8377311E+003	-5.9852119E+001	4.064526283720625E+001	-1.4740680E-001	-1.7244414E-003	1.4098738E+002	1.0542493E+002	1.000000000000000E+000	13	2.0352086E-002	1.1074572E-005	-6.874465532874334E-006	2.7329000E-004	4.7054328E-004	5.4414925E-004	5.9852119E+001	-1.633265723308989E-003	-2.647587572702226E-006
4.8035541E-001	1.1531028E+003	2.1344231E+003	2.4259861E+003	-6.1620266E+001	4.924551399235497E+001	-1.4740852E-001	-1.7273570E-003	1.5523045E+002	1.2016039E+002	1.000000000000000E+000	13	2.0352295E-002	8.3892874E-006	-1.132980288581793E-005	1.9592571E-004	3.6266356E-004	4.1220352E-004	6.1620266E+001	-1.864970473681423E-003	-4.455337352943591E-006
3.2443938E-001	1.5072196E+003	2.8823479E+003	3.2526360E+003	-6.2394310E+001	6.194905542241759E+001	-1.4740224E-001	-1.7443483E-003	1.7019240E+002	1.3364787E+002	1.000000000000000E+000	13	2.0352280E-002	6.2571648E-006	-1.808925250636245E-005	1.4246415E-004	2.7244288E-004	3.0744294E-004	6.2394310E+001	-1.915530308451976E-003	-6.759449620544525E-006
